T3794 356:737.143   SEGGER J-Link V6.54 Log File
T3794 356:737.825   DLL Compiled: Oct 28 2019 10:33:23
T3794 356:737.849   Logging started @ 2026-09-28 15:00
T3794 356:737.871 JLINK_SetWarnOutHandler(...)
T3794 356:738.115 - 0.255ms
T3794 356:738.327 JLINK_OpenEx(...)
T3794 356:741.056   Firmware: J-Link V9 compiled May  7 2021 16:26:12
T3794 356:754.271   Hardware: V9.40
T3794 356:754.325   S/N: 69403042
T3794 356:754.357   OEM: SEGGER
T3794 356:754.384   Feature(s): RDI, GDB, FlashDL, FlashBP, JFlash
T3794 356:755.728   TELNET listener socket opened on port 19021
T3794 356:781.118   WEBSRV Starting webserver
T3794 356:781.297   WEBSRV Webserver running on local port 19080
T3794 356:781.330 - 43.012ms returns "O.K."
T3794 356:781.439 JLINK_GetEmuCaps()
T3794 356:781.451 - 0.015ms returns 0xB9FF7BBF
T3794 356:781.463 JLINK_TIF_GetAvailable(...)
T3794 356:781.598 - 0.145ms
T3794 356:781.618 JLINK_SetErrorOutHandler(...)
T3794 356:781.626 - 0.012ms
T3794 356:781.646 JLINK_ExecCommand("ProjectFile = "C:\Users\Administrator\Documents\GitHub\sEMG_Watch_Wireless_RX\project\mdk5\JLinkSettings.ini"", ...). 
T3794 356:786.111   Ref file found at: C:\Keil_v5\ARM\Segger\JLinkDevices.ref
T3794 356:786.253   XML referenced by ref file: C:\Program Files (x86)\SEGGER\JLink\JLinkDevices.xml
T3794 356:787.940   C:\Program Files (x86)\SEGGER\JLink\JLinkDevices.xml evaluated successfully.
T3794 356:858.164 - 76.531ms returns 0x00
T3794 356:860.114 JLINK_ExecCommand("Device = nRF52832_xxAA", ...). 
T3794 356:862.373   Device "NRF52832_XXAA" selected.
T3794 356:862.681 - 2.556ms returns 0x00
T3794 356:862.694 JLINK_ExecCommand("DisableConnectionTimeout", ...). 
T3794 356:862.705 - 0.006ms returns 0x01
T3794 356:862.718 JLINK_GetHardwareVersion()
T3794 356:862.726 - 0.011ms returns 0x16F30
T3794 356:862.734 JLINK_GetDLLVersion()  returns 65400
T3794 356:862.904 JLINK_GetFirmwareString(...)
T3794 356:862.913 - 0.012ms
T3794 356:867.650 JLINK_GetDLLVersion()  returns 65400
T3794 356:867.683 JLINK_GetCompileDateTime()
T3794 356:867.691 - 0.011ms
T3794 356:869.435 JLINK_GetFirmwareString(...)
T3794 356:869.452 - 0.022ms
T3794 356:870.848 JLINK_GetHardwareVersion()
T3794 356:870.862 - 0.017ms returns 0x16F30
T3794 356:878.654 JLINK_TIF_Select(JLINKARM_TIF_SWD)
T3794 356:879.174 - 0.532ms returns 0x00
T3794 356:879.450 JLINK_SetSpeed(3000)
T3794 356:879.799 - 0.358ms
T3794 356:879.816 JLINK_GetId()
T3794 356:881.663   InitTarget() start
T3794 356:881.683    J-Link Script File: Executing InitTarget()
T3794 356:887.557   InitTarget() end
T3794 356:890.028   Found SW-DP with ID 0x2BA01477
T3794 356:893.513   Scanning AP map to find all available APs
T3794 356:897.191   AP[2]: Stopped AP scan as end of AP map has been reached
T3794 356:898.997   AP[0]: AHB-AP (IDR: 0x24770011)
T3794 356:900.552   AP[1]: JTAG-AP (IDR: 0x02880000)
T3794 356:901.999   Iterating through AP map to find AHB-AP to use
T3794 356:908.563   AP[0]: Core found
T3794 356:909.980   AP[0]: AHB-AP ROM base: 0xE00FF000
T3794 356:912.724   CPUID register: 0x410FC241. Implementer code: 0x41 (ARM)
T3794 356:914.128   Found Cortex-M4 r0p1, Little endian.
T3794 357:014.645    -- Max. mem block: 0x00010E60
T3794 357:014.688    -- CPU_ReadMem(4 bytes @ 0xE000EDF0)
T3794 357:015.252    -- CPU_WriteMem(4 bytes @ 0xE000EDF0)
T3794 357:015.633    -- CPU_ReadMem(4 bytes @ 0xE0002000)
T3794 357:017.634   FPUnit: 6 code (BP) slots and 2 literal slots
T3794 357:017.654    -- CPU_ReadMem(4 bytes @ 0xE000EDFC)
T3794 357:018.080    -- CPU_WriteMem(4 bytes @ 0xE000EDFC)
T3794 357:018.471    -- CPU_ReadMem(4 bytes @ 0xE0001000)
T3794 357:018.920    -- CPU_WriteMem(4 bytes @ 0xE0001000)
T3794 357:019.368    -- CPU_ReadMem(4 bytes @ 0xE000ED88)
T3794 357:019.804    -- CPU_WriteMem(4 bytes @ 0xE000ED88)
T3794 357:020.268    -- CPU_ReadMem(4 bytes @ 0xE000ED88)
T3794 357:020.670    -- CPU_WriteMem(4 bytes @ 0xE000ED88)
T3794 357:022.730   CoreSight components:
T3794 357:024.322   ROMTbl[0] @ E00FF000
T3794 357:024.344    -- CPU_ReadMem(16 bytes @ 0xE00FF000)
T3794 357:024.935    -- CPU_ReadMem(16 bytes @ 0xE000EFF0)
T3794 357:025.419    -- CPU_ReadMem(16 bytes @ 0xE000EFE0)
T3794 357:028.954   ROMTbl[0][0]: E000E000, CID: B105E00D, PID: 000BB00C SCS-M7
T3794 357:028.978    -- CPU_ReadMem(16 bytes @ 0xE0001FF0)
T3794 357:029.407    -- CPU_ReadMem(16 bytes @ 0xE0001FE0)
T3794 357:031.383   ROMTbl[0][1]: E0001000, CID: B105E00D, PID: 003BB002 DWT
T3794 357:031.401    -- CPU_ReadMem(16 bytes @ 0xE0002FF0)
T3794 357:031.901    -- CPU_ReadMem(16 bytes @ 0xE0002FE0)
T3794 357:033.830   ROMTbl[0][2]: E0002000, CID: B105E00D, PID: 002BB003 FPB
T3794 357:033.849    -- CPU_ReadMem(16 bytes @ 0xE0000FF0)
T3794 357:034.385    -- CPU_ReadMem(16 bytes @ 0xE0000FE0)
T3794 357:036.325   ROMTbl[0][3]: E0000000, CID: B105E00D, PID: 003BB001 ITM
T3794 357:036.345    -- CPU_ReadMem(16 bytes @ 0xE00FF010)
T3794 357:036.886    -- CPU_ReadMem(16 bytes @ 0xE0040FF0)
T3794 357:037.405    -- CPU_ReadMem(16 bytes @ 0xE0040FE0)
T3794 357:039.978   ROMTbl[0][4]: E0040000, CID: B105900D, PID: 000BB9A1 TPIU
T3794 357:040.013    -- CPU_ReadMem(16 bytes @ 0xE0041FF0)
T3794 357:040.513    -- CPU_ReadMem(16 bytes @ 0xE0041FE0)
T3794 357:042.487   ROMTbl[0][5]: E0041000, CID: B105900D, PID: 000BB925 ETM
T3794 357:042.748 - 162.939ms   returns 0x2BA01477
T3794 357:042.766 JLINK_GetDLLVersion()  returns 65400
T3794 357:042.779 JLINK_CORE_GetFound()
T3794 357:042.786 - 0.012ms returns 0xE0000FF
T3794 357:042.849 JLINK_GetDebugInfo(0x100 = JLINKARM_ROM_TABLE_ADDR_INDEX)
T3794 357:042.859    -- Value=0xE00FF000
T3794 357:042.869 - 0.023ms returns 0x00
T3794 357:044.296 JLINK_GetDebugInfo(0x100 = JLINKARM_ROM_TABLE_ADDR_INDEX)
T3794 357:044.312    -- Value=0xE00FF000
T3794 357:044.322 - 0.029ms returns 0x00
T3794 357:044.330 JLINK_GetDebugInfo(0x101 = JLINKARM_DEBUG_INFO_ETM_ADDR_INDEX)
T3794 357:044.338    -- Value=0xE0041000
T3794 357:044.348 - 0.021ms returns 0x00
T3794 357:044.362   JLINK_ReadMemEx(0xE0041FD0, 0x0020 Bytes, ..., Flags = 0x02000004)
T3794 357:044.640    -- CPU_ReadMem(32 bytes @ 0xE0041FD0)
T3794 357:045.220    - Data: 04 00 00 00 00 00 00 00 00 00 00 00 00 00 00 00 ...
T3794 357:045.238 - 0.884ms returns 0x20
T3794 357:045.248 JLINK_GetDebugInfo(0x102 = JLINKARM_DEBUG_INFO_MTB_ADDR_INDEX)
T3794 357:045.259    -- Value=0x00000000
T3794 357:045.268 - 0.023ms returns 0x00
T3794 357:045.276 JLINK_GetDebugInfo(0x103 = JLINKARM_DEBUG_INFO_TPIU_ADDR_INDEX)
T3794 357:045.284    -- Value=0xE0040000
T3794 357:045.294 - 0.021ms returns 0x00
T3794 357:045.301 JLINK_GetDebugInfo(0x104 = JLINKARM_DEBUG_INFO_ITM_ADDR_INDEX)
T3794 357:045.309    -- Value=0xE0000000
T3794 357:045.319 - 0.021ms returns 0x00
T3794 357:045.327 JLINK_GetDebugInfo(0x105 = JLINKARM_DEBUG_INFO_DWT_ADDR_INDEX)
T3794 357:045.335    -- Value=0xE0001000
T3794 357:045.346 - 0.022ms returns 0x00
T3794 357:045.353 JLINK_GetDebugInfo(0x106 = JLINKARM_DEBUG_INFO_FPB_ADDR_INDEX)
T3794 357:045.361    -- Value=0xE0002000
T3794 357:045.371 - 0.021ms returns 0x00
T3794 357:045.379 JLINK_GetDebugInfo(0x107 = JLINKARM_DEBUG_INFO_NVIC_ADDR_INDEX)
T3794 357:045.386    -- Value=0xE000E000
T3794 357:045.396 - 0.020ms returns 0x00
T3794 357:045.404 JLINK_GetDebugInfo(0x10C = JLINKARM_DEBUG_INFO_DBG_ADDR_INDEX)
T3794 357:045.411    -- Value=0xE000EDF0
T3794 357:045.421 - 0.020ms returns 0x00
T3794 357:045.429 JLINK_GetDebugInfo(0x01 = Unknown)
T3794 357:045.439    -- Value=0x00000001
T3794 357:045.450 - 0.023ms returns 0x00
T3794 357:045.460   JLINK_ReadMemU32(0xE000ED00, 0x0001 Items, ...)
T3794 357:045.475    -- CPU_ReadMem(4 bytes @ 0xE000ED00)
T3794 357:045.916    - Data: 41 C2 0F 41
T3794 357:045.935    - CPUID
T3794 357:045.946 - 0.490ms returns 1
T3794 357:045.956 JLINK_GetDebugInfo(0x10F = JLINKARM_DEBUG_INFO_HAS_CORTEX_M_SECURITY_EXT_INDEX)
T3794 357:045.964    -- Value=0x00000000
T3794 357:045.974 - 0.021ms returns 0x00
T3794 357:045.984 JLINK_SetResetType(JLINKARM_CM3_RESET_TYPE_NORMAL)
T3794 357:045.993 - 0.013ms returns JLINKARM_CM3_RESET_TYPE_NORMAL
T3794 357:046.003 JLINK_Reset()
T3794 357:046.060    -- CPU is running
T3794 357:046.073    -- CPU_WriteMem(4 bytes @ 0xE000EDF0)
T3794 357:046.447    -- CPU is running
T3794 357:046.464    -- CPU_WriteMem(4 bytes @ 0xE000EDFC)
T3794 357:048.432   Reset: Halt core after reset via DEMCR.VC_CORERESET.
T3794 357:050.356   Reset: Reset device via AIRCR.SYSRESETREQ.
T3794 357:050.374    -- CPU is running
T3794 357:050.385    -- CPU_WriteMem(4 bytes @ 0xE000ED0C)
T3794 357:103.310    -- CPU_ReadMem(4 bytes @ 0xE000EDF0)
T3794 357:103.669    -- CPU_ReadMem(4 bytes @ 0xE000EDF0)
T3794 357:103.994    -- CPU is running
T3794 357:104.007    -- CPU_WriteMem(4 bytes @ 0xE000EDF0)
T3794 357:104.419    -- CPU is running
T3794 357:104.431    -- CPU_WriteMem(4 bytes @ 0xE000EDFC)
T3794 357:109.830    -- CPU_ReadMem(4 bytes @ 0xE000EDF0)
T3794 357:113.953    -- CPU_WriteMem(4 bytes @ 0xE0002000)
T3794 357:114.349    -- CPU_ReadMem(4 bytes @ 0xE000EDFC)
T3794 357:114.798    -- CPU_ReadMem(4 bytes @ 0xE0001000)
T3794 357:115.179 - 69.185ms
T3794 357:115.208 JLINK_Halt()
T3794 357:115.217 - 0.012ms returns 0x00
T3794 357:115.226   JLINK_ReadMemU32(0xE000EDF0, 0x0001 Items, ...)
T3794 357:115.242    -- CPU_ReadMem(4 bytes @ 0xE000EDF0)
T3794 357:115.596    - Data: 03 00 03 00
T3794 357:115.613    - DHCSR
T3794 357:115.623 - 0.400ms returns 1
T3794 357:115.635   JLINK_WriteU32(0xE000EDF0, 0xA05F0003)
T3794 357:115.646    - DHCSR
T3794 357:115.670    -- CPU_WriteMem(4 bytes @ 0xE000EDF0)
T3794 357:116.041 - 0.413ms returns 0
T3794 357:116.055   JLINK_WriteU32(0xE000EDFC, 0x01000000)
T3794 357:116.066    - DEMCR
T3794 357:116.081    -- CPU_WriteMem(4 bytes @ 0xE000EDFC)
T3794 357:116.428 - 0.379ms returns 0
T3794 357:123.496 JLINK_GetHWStatus(...)
T3794 357:123.706 - 0.219ms returns 0x00
T3794 357:127.784 JLINK_GetNumBPUnits(Type = 0xFFFFFF00)
T3794 357:127.800 - 0.019ms returns 0x06
T3794 357:127.808 JLINK_GetNumBPUnits(Type = 0xF0)
T3794 357:127.818 - 0.014ms returns 0x2000
T3794 357:127.828 JLINK_GetNumWPUnits()
T3794 357:127.835 - 0.011ms returns 0x04
T3794 357:131.983 JLINK_GetSpeed()
T3794 357:132.005 - 0.026ms returns 0xBB8
T3794 357:134.603   JLINK_ReadMemU32(0xE000E004, 0x0001 Items, ...)
T3794 357:134.630    -- CPU_ReadMem(4 bytes @ 0xE000E004)
T3794 357:135.078    - Data: 01 00 00 00
T3794 357:135.095 - 0.496ms returns 1
T3794 357:135.104   JLINK_ReadMemU32(0xE000E004, 0x0001 Items, ...)
T3794 357:135.118    -- CPU_ReadMem(4 bytes @ 0xE000E004)
T3794 357:135.477    - Data: 01 00 00 00
T3794 357:135.497 - 0.396ms returns 1
T3794 357:135.509 JLINK_WriteMemEx(0xE0001000, 0x001C Bytes, ..., Flags = 0x02000004)
T3794 357:135.517    - Data: 01 00 00 00 00 00 00 00 00 00 00 00 00 00 00 00 ...
T3794 357:135.732    -- CPU_WriteMem(28 bytes @ 0xE0001000)
T3794 357:136.434 - 0.934ms returns 0x1C
T3794 357:136.452 JLINK_Halt()
T3794 357:136.460 - 0.011ms returns 0x00
T3794 357:136.469 JLINK_IsHalted()
T3794 357:136.477 - 0.012ms returns TRUE
T3794 357:140.548 JLINK_WriteMem(0x20000000, 0x05B8 Bytes, ...)
T3794 357:140.564    - Data: 00 BE 0A E0 0D 78 2D 06 68 40 08 24 40 00 00 D3 ...
T3794 357:140.761    -- CPU_WriteMem(1464 bytes @ 0x20000000)
T3794 357:151.345 - 10.814ms returns 0x5B8
T3794 357:151.401 JLINK_WriteReg(R0, 0x00000000)
T3794 357:151.414 - 0.018ms returns 0x00
T3794 357:151.424 JLINK_WriteReg(R1, 0x00B71B00)
T3794 357:151.431 - 0.011ms returns 0x00
T3794 357:151.439 JLINK_WriteReg(R2, 0x00000001)
T3794 357:151.447 - 0.011ms returns 0x00
T3794 357:151.506 JLINK_WriteReg(R3, 0x00000000)
T3794 357:151.521 - 0.019ms returns 0x00
T3794 357:151.530 JLINK_WriteReg(R4, 0x00000000)
T3794 357:151.538 - 0.011ms returns 0x00
T3794 357:151.548 JLINK_WriteReg(R5, 0x00000000)
T3794 357:151.558 - 0.013ms returns 0x00
T3794 357:151.566 JLINK_WriteReg(R6, 0x00000000)
T3794 357:151.573 - 0.010ms returns 0x00
T3794 357:151.581 JLINK_WriteReg(R7, 0x00000000)
T3794 357:151.589 - 0.011ms returns 0x00
T3794 357:151.596 JLINK_WriteReg(R8, 0x00000000)
T3794 357:151.604 - 0.011ms returns 0x00
T3794 357:151.615 JLINK_WriteReg(R9, 0x200005B4)
T3794 357:151.625 - 0.013ms returns 0x00
T3794 357:151.633 JLINK_WriteReg(R10, 0x00000000)
T3794 357:151.640 - 0.011ms returns 0x00
T3794 357:151.648 JLINK_WriteReg(R11, 0x00000000)
T3794 357:151.656 - 0.011ms returns 0x00
T3794 357:151.664 JLINK_WriteReg(R12, 0x00000000)
T3794 357:151.673 - 0.012ms returns 0x00
T3794 357:151.681 JLINK_WriteReg(R13 (SP), 0x20004000)
T3794 357:151.689 - 0.011ms returns 0x00
T3794 357:151.697 JLINK_WriteReg(R14, 0x20000001)
T3794 357:151.705 - 0.010ms returns 0x00
T3794 357:151.713 JLINK_WriteReg(R15 (PC), 0x20000020)
T3794 357:151.720 - 0.011ms returns 0x00
T3794 357:151.728 JLINK_WriteReg(XPSR, 0x01000000)
T3794 357:151.736 - 0.011ms returns 0x00
T3794 357:151.744 JLINK_WriteReg(MSP, 0x20004000)
T3794 357:151.751 - 0.011ms returns 0x00
T3794 357:151.759 JLINK_WriteReg(PSP, 0x20004000)
T3794 357:151.767 - 0.010ms returns 0x00
T3794 357:151.775 JLINK_WriteReg(CFBP, 0x00000000)
T3794 357:151.784 - 0.012ms returns 0x00
T3794 357:151.794   JLINK_SetBPEx(Addr = 0x20000000, Type = 0xFFFFFFF2)
T3794 357:151.810    -- CPU_ReadMem(2 bytes @ 0x20000000)
T3794 357:152.215 - 0.431ms returns 0x00000001
T3794 357:152.232 JLINK_Go()
T3794 357:152.243    -- CPU_WriteMem(2 bytes @ 0x20000000)
T3794 357:152.662    -- CPU_ReadMem(4 bytes @ 0xE0001000)
T3794 357:153.099    -- CPU_WriteMem(4 bytes @ 0xE0002008)
T3794 357:153.116    -- CPU_WriteMem(4 bytes @ 0xE000200C)
T3794 357:153.127    -- CPU_WriteMem(4 bytes @ 0xE0002010)
T3794 357:153.140    -- CPU_WriteMem(4 bytes @ 0xE0002014)
T3794 357:153.150    -- CPU_WriteMem(4 bytes @ 0xE0002018)
T3794 357:153.161    -- CPU_WriteMem(4 bytes @ 0xE000201C)
T3794 357:154.785    -- CPU_WriteMem(4 bytes @ 0xE0001004)
T3794 357:158.702 - 6.485ms
T3794 357:158.725 JLINK_IsHalted()
T3794 357:162.427    -- CPU_ReadMem(2 bytes @ 0x20000000)
T3794 357:162.865 - 4.149ms returns TRUE
T3794 357:162.884 JLINK_ReadReg(R15 (PC))
T3794 357:162.894 - 0.014ms returns 0x20000000
T3794 357:162.903 JLINK_ClrBPEx(BPHandle = 0x00000001)
T3794 357:162.913 - 0.014ms returns 0x00
T3794 357:162.923 JLINK_ReadReg(R0)
T3794 357:162.931 - 0.011ms returns 0x00000000
T3794 357:163.590 JLINK_WriteReg(R0, 0x00000000)
T3794 357:163.606 - 0.020ms returns 0x00
T3794 357:163.615 JLINK_WriteReg(R1, 0x00001000)
T3794 357:163.622 - 0.011ms returns 0x00
T3794 357:163.630 JLINK_WriteReg(R2, 0x000000FF)
T3794 357:163.638 - 0.011ms returns 0x00
T3794 357:163.646 JLINK_WriteReg(R3, 0x00000000)
T3794 357:163.654 - 0.011ms returns 0x00
T3794 357:163.661 JLINK_WriteReg(R4, 0x00000000)
T3794 357:163.669 - 0.010ms returns 0x00
T3794 357:163.677 JLINK_WriteReg(R5, 0x00000000)
T3794 357:163.685 - 0.013ms returns 0x00
T3794 357:163.694 JLINK_WriteReg(R6, 0x00000000)
T3794 357:163.702 - 0.011ms returns 0x00
T3794 357:163.710 JLINK_WriteReg(R7, 0x00000000)
T3794 357:163.717 - 0.011ms returns 0x00
T3794 357:163.725 JLINK_WriteReg(R8, 0x00000000)
T3794 357:163.732 - 0.010ms returns 0x00
T3794 357:163.740 JLINK_WriteReg(R9, 0x200005B4)
T3794 357:163.748 - 0.011ms returns 0x00
T3794 357:163.756 JLINK_WriteReg(R10, 0x00000000)
T3794 357:163.763 - 0.011ms returns 0x00
T3794 357:163.771 JLINK_WriteReg(R11, 0x00000000)
T3794 357:163.779 - 0.011ms returns 0x00
T3794 357:163.787 JLINK_WriteReg(R12, 0x00000000)
T3794 357:163.794 - 0.012ms returns 0x00
T3794 357:163.803 JLINK_WriteReg(R13 (SP), 0x20004000)
T3794 357:163.811 - 0.011ms returns 0x00
T3794 357:163.819 JLINK_WriteReg(R14, 0x20000001)
T3794 357:163.827 - 0.011ms returns 0x00
T3794 357:163.835 JLINK_WriteReg(R15 (PC), 0x20000288)
T3794 357:163.842 - 0.011ms returns 0x00
T3794 357:163.850 JLINK_WriteReg(XPSR, 0x01000000)
T3794 357:163.857 - 0.011ms returns 0x00
T3794 357:163.865 JLINK_WriteReg(MSP, 0x20004000)
T3794 357:163.873 - 0.010ms returns 0x00
T3794 357:163.880 JLINK_WriteReg(PSP, 0x20004000)
T3794 357:163.888 - 0.011ms returns 0x00
T3794 357:163.896 JLINK_WriteReg(CFBP, 0x00000000)
T3794 357:163.904 - 0.012ms returns 0x00
T3794 357:163.913   JLINK_SetBPEx(Addr = 0x20000000, Type = 0xFFFFFFF2)
T3794 357:163.966 - 0.057ms returns 0x00000002
T3794 357:163.975 JLINK_Go()
T3794 357:163.988    -- CPU_ReadMem(4 bytes @ 0xE0001000)
T3794 357:167.910 - 3.944ms
T3794 357:167.926 JLINK_IsHalted()
T3794 357:171.520    -- CPU_ReadMem(2 bytes @ 0x20000000)
T3794 357:171.847 - 3.935ms returns TRUE
T3794 357:171.869 JLINK_ReadReg(R15 (PC))
T3794 357:171.879 - 0.014ms returns 0x20000000
T3794 357:171.888 JLINK_ClrBPEx(BPHandle = 0x00000002)
T3794 357:171.898 - 0.015ms returns 0x00
T3794 357:171.909 JLINK_ReadReg(R0)
T3794 357:171.917 - 0.011ms returns 0x00000001
T3794 357:171.926 JLINK_WriteReg(R0, 0x00000000)
T3794 357:171.935 - 0.011ms returns 0x00
T3794 357:171.942 JLINK_WriteReg(R1, 0x00001000)
T3794 357:171.951 - 0.011ms returns 0x00
T3794 357:171.958 JLINK_WriteReg(R2, 0x000000FF)
T3794 357:171.966 - 0.010ms returns 0x00
T3794 357:171.974 JLINK_WriteReg(R3, 0x00000000)
T3794 357:171.981 - 0.011ms returns 0x00
T3794 357:171.989 JLINK_WriteReg(R4, 0x00000000)
T3794 357:171.997 - 0.011ms returns 0x00
T3794 357:172.005 JLINK_WriteReg(R5, 0x00000000)
T3794 357:172.020 - 0.042ms returns 0x00
T3794 357:172.079 JLINK_WriteReg(R6, 0x00000000)
T3794 357:172.092 - 0.017ms returns 0x00
T3794 357:172.100 JLINK_WriteReg(R7, 0x00000000)
T3794 357:172.108 - 0.012ms returns 0x00
T3794 357:172.117 JLINK_WriteReg(R8, 0x00000000)
T3794 357:172.124 - 0.011ms returns 0x00
T3794 357:172.132 JLINK_WriteReg(R9, 0x200005B4)
T3794 357:172.140 - 0.010ms returns 0x00
T3794 357:172.148 JLINK_WriteReg(R10, 0x00000000)
T3794 357:172.156 - 0.011ms returns 0x00
T3794 357:172.163 JLINK_WriteReg(R11, 0x00000000)
T3794 357:172.171 - 0.011ms returns 0x00
T3794 357:172.179 JLINK_WriteReg(R12, 0x00000000)
T3794 357:172.188 - 0.014ms returns 0x00
T3794 357:172.197 JLINK_WriteReg(R13 (SP), 0x20004000)
T3794 357:172.205 - 0.011ms returns 0x00
T3794 357:172.213 JLINK_WriteReg(R14, 0x20000001)
T3794 357:172.221 - 0.011ms returns 0x00
T3794 357:172.229 JLINK_WriteReg(R15 (PC), 0x200000D4)
T3794 357:172.237 - 0.011ms returns 0x00
T3794 357:172.245 JLINK_WriteReg(XPSR, 0x01000000)
T3794 357:172.252 - 0.011ms returns 0x00
T3794 357:172.261 JLINK_WriteReg(MSP, 0x20004000)
T3794 357:172.268 - 0.010ms returns 0x00
T3794 357:172.276 JLINK_WriteReg(PSP, 0x20004000)
T3794 357:172.284 - 0.011ms returns 0x00
T3794 357:172.291 JLINK_WriteReg(CFBP, 0x00000000)
T3794 357:172.300 - 0.012ms returns 0x00
T3794 357:172.309   JLINK_SetBPEx(Addr = 0x20000000, Type = 0xFFFFFFF2)
T3794 357:172.321 - 0.016ms returns 0x00000003
T3794 357:172.329 JLINK_Go()
T3794 357:172.344    -- CPU_ReadMem(4 bytes @ 0xE0001000)
T3794 357:176.168 - 3.849ms
T3794 357:176.186 JLINK_IsHalted()
T3794 357:176.614 - 0.434ms returns FALSE
T3794 357:206.192 JLINK_IsHalted()
T3794 357:209.869    -- CPU_ReadMem(2 bytes @ 0x20000000)
T3794 357:210.252 - 4.071ms returns TRUE
T3794 357:210.272 JLINK_ReadReg(R15 (PC))
T3794 357:210.282 - 0.013ms returns 0x20000000
T3794 357:210.290 JLINK_ClrBPEx(BPHandle = 0x00000003)
T3794 357:210.298 - 0.011ms returns 0x00
T3794 357:210.307 JLINK_ReadReg(R0)
T3794 357:210.314 - 0.011ms returns 0x00000000
T3794 357:210.727 JLINK_WriteReg(R0, 0x00001000)
T3794 357:210.743 - 0.020ms returns 0x00
T3794 357:210.751 JLINK_WriteReg(R1, 0x00001000)
T3794 357:210.759 - 0.010ms returns 0x00
T3794 357:210.767 JLINK_WriteReg(R2, 0x000000FF)
T3794 357:210.774 - 0.011ms returns 0x00
T3794 357:210.782 JLINK_WriteReg(R3, 0x00000000)
T3794 357:210.790 - 0.012ms returns 0x00
T3794 357:210.799 JLINK_WriteReg(R4, 0x00000000)
T3794 357:210.807 - 0.011ms returns 0x00
T3794 357:210.815 JLINK_WriteReg(R5, 0x00000000)
T3794 357:210.822 - 0.010ms returns 0x00
T3794 357:210.830 JLINK_WriteReg(R6, 0x00000000)
T3794 357:210.838 - 0.011ms returns 0x00
T3794 357:210.845 JLINK_WriteReg(R7, 0x00000000)
T3794 357:210.855 - 0.012ms returns 0x00
T3794 357:210.862 JLINK_WriteReg(R8, 0x00000000)
T3794 357:210.870 - 0.011ms returns 0x00
T3794 357:210.878 JLINK_WriteReg(R9, 0x200005B4)
T3794 357:210.925 - 0.054ms returns 0x00
T3794 357:210.937 JLINK_WriteReg(R10, 0x00000000)
T3794 357:210.946 - 0.013ms returns 0x00
T3794 357:210.955 JLINK_WriteReg(R11, 0x00000000)
T3794 357:210.963 - 0.011ms returns 0x00
T3794 357:210.970 JLINK_WriteReg(R12, 0x00000000)
T3794 357:210.978 - 0.011ms returns 0x00
T3794 357:210.986 JLINK_WriteReg(R13 (SP), 0x20004000)
T3794 357:210.994 - 0.011ms returns 0x00
T3794 357:211.002 JLINK_WriteReg(R14, 0x20000001)
T3794 357:211.011 - 0.012ms returns 0x00
T3794 357:211.019 JLINK_WriteReg(R15 (PC), 0x20000288)
T3794 357:211.027 - 0.011ms returns 0x00
T3794 357:211.034 JLINK_WriteReg(XPSR, 0x01000000)
T3794 357:211.042 - 0.011ms returns 0x00
T3794 357:211.050 JLINK_WriteReg(MSP, 0x20004000)
T3794 357:211.058 - 0.012ms returns 0x00
T3794 357:211.067 JLINK_WriteReg(PSP, 0x20004000)
T3794 357:211.075 - 0.011ms returns 0x00
T3794 357:211.083 JLINK_WriteReg(CFBP, 0x00000000)
T3794 357:211.091 - 0.011ms returns 0x00
T3794 357:211.099   JLINK_SetBPEx(Addr = 0x20000000, Type = 0xFFFFFFF2)
T3794 357:211.111 - 0.015ms returns 0x00000004
T3794 357:211.119 JLINK_Go()
T3794 357:211.132    -- CPU_ReadMem(4 bytes @ 0xE0001000)
T3794 357:214.965 - 3.855ms
T3794 357:214.981 JLINK_IsHalted()
T3794 357:218.571    -- CPU_ReadMem(2 bytes @ 0x20000000)
T3794 357:218.919 - 3.950ms returns TRUE
T3794 357:218.942 JLINK_ReadReg(R15 (PC))
T3794 357:218.954 - 0.015ms returns 0x20000000
T3794 357:218.963 JLINK_ClrBPEx(BPHandle = 0x00000004)
T3794 357:218.971 - 0.011ms returns 0x00
T3794 357:218.979 JLINK_ReadReg(R0)
T3794 357:218.987 - 0.011ms returns 0x00000001
T3794 357:218.997 JLINK_WriteReg(R0, 0x00001000)
T3794 357:219.006 - 0.011ms returns 0x00
T3794 357:219.013 JLINK_WriteReg(R1, 0x00001000)
T3794 357:219.021 - 0.011ms returns 0x00
T3794 357:219.029 JLINK_WriteReg(R2, 0x000000FF)
T3794 357:219.037 - 0.011ms returns 0x00
T3794 357:219.045 JLINK_WriteReg(R3, 0x00000000)
T3794 357:219.052 - 0.011ms returns 0x00
T3794 357:219.062 JLINK_WriteReg(R4, 0x00000000)
T3794 357:219.070 - 0.011ms returns 0x00
T3794 357:219.078 JLINK_WriteReg(R5, 0x00000000)
T3794 357:219.085 - 0.011ms returns 0x00
T3794 357:219.093 JLINK_WriteReg(R6, 0x00000000)
T3794 357:219.100 - 0.012ms returns 0x00
T3794 357:219.110 JLINK_WriteReg(R7, 0x00000000)
T3794 357:219.117 - 0.010ms returns 0x00
T3794 357:219.125 JLINK_WriteReg(R8, 0x00000000)
T3794 357:219.133 - 0.011ms returns 0x00
T3794 357:219.141 JLINK_WriteReg(R9, 0x200005B4)
T3794 357:219.149 - 0.011ms returns 0x00
T3794 357:219.157 JLINK_WriteReg(R10, 0x00000000)
T3794 357:219.164 - 0.011ms returns 0x00
T3794 357:219.174 JLINK_WriteReg(R11, 0x00000000)
T3794 357:219.181 - 0.011ms returns 0x00
T3794 357:219.189 JLINK_WriteReg(R12, 0x00000000)
T3794 357:219.197 - 0.011ms returns 0x00
T3794 357:219.205 JLINK_WriteReg(R13 (SP), 0x20004000)
T3794 357:219.213 - 0.012ms returns 0x00
T3794 357:219.221 JLINK_WriteReg(R14, 0x20000001)
T3794 357:219.229 - 0.011ms returns 0x00
T3794 357:219.237 JLINK_WriteReg(R15 (PC), 0x200000D4)
T3794 357:219.244 - 0.010ms returns 0x00
T3794 357:219.252 JLINK_WriteReg(XPSR, 0x01000000)
T3794 357:219.260 - 0.011ms returns 0x00
T3794 357:219.268 JLINK_WriteReg(MSP, 0x20004000)
T3794 357:219.276 - 0.011ms returns 0x00
T3794 357:219.285 JLINK_WriteReg(PSP, 0x20004000)
T3794 357:219.292 - 0.011ms returns 0x00
T3794 357:219.301 JLINK_WriteReg(CFBP, 0x00000000)
T3794 357:219.308 - 0.010ms returns 0x00
T3794 357:219.317   JLINK_SetBPEx(Addr = 0x20000000, Type = 0xFFFFFFF2)
T3794 357:219.328 - 0.015ms returns 0x00000005
T3794 357:219.336 JLINK_Go()
T3794 357:219.350    -- CPU_ReadMem(4 bytes @ 0xE0001000)
T3794 357:223.174 - 3.860ms
T3794 357:223.205 JLINK_IsHalted()
T3794 357:223.573 - 0.376ms returns FALSE
T3794 357:225.625 JLINK_IsHalted()
T3794 357:229.190    -- CPU_ReadMem(2 bytes @ 0x20000000)
T3794 357:229.548 - 3.931ms returns TRUE
T3794 357:229.564 JLINK_ReadReg(R15 (PC))
T3794 357:229.575 - 0.014ms returns 0x20000000
T3794 357:229.584 JLINK_ClrBPEx(BPHandle = 0x00000005)
T3794 357:229.634 - 0.057ms returns 0x00
T3794 357:229.647 JLINK_ReadReg(R0)
T3794 357:229.655 - 0.011ms returns 0x00000000
T3794 357:230.044 JLINK_WriteReg(R0, 0x00002000)
T3794 357:230.058 - 0.017ms returns 0x00
T3794 357:230.066 JLINK_WriteReg(R1, 0x00001000)
T3794 357:230.074 - 0.011ms returns 0x00
T3794 357:230.082 JLINK_WriteReg(R2, 0x000000FF)
T3794 357:230.089 - 0.011ms returns 0x00
T3794 357:230.099 JLINK_WriteReg(R3, 0x00000000)
T3794 357:230.106 - 0.010ms returns 0x00
T3794 357:230.114 JLINK_WriteReg(R4, 0x00000000)
T3794 357:230.122 - 0.011ms returns 0x00
T3794 357:230.129 JLINK_WriteReg(R5, 0x00000000)
T3794 357:230.137 - 0.011ms returns 0x00
T3794 357:230.145 JLINK_WriteReg(R6, 0x00000000)
T3794 357:230.152 - 0.011ms returns 0x00
T3794 357:230.160 JLINK_WriteReg(R7, 0x00000000)
T3794 357:230.168 - 0.010ms returns 0x00
T3794 357:230.176 JLINK_WriteReg(R8, 0x00000000)
T3794 357:230.185 - 0.012ms returns 0x00
T3794 357:230.192 JLINK_WriteReg(R9, 0x200005B4)
T3794 357:230.200 - 0.011ms returns 0x00
T3794 357:230.209 JLINK_WriteReg(R10, 0x00000000)
T3794 357:230.217 - 0.011ms returns 0x00
T3794 357:230.225 JLINK_WriteReg(R11, 0x00000000)
T3794 357:230.232 - 0.011ms returns 0x00
T3794 357:230.241 JLINK_WriteReg(R12, 0x00000000)
T3794 357:230.248 - 0.011ms returns 0x00
T3794 357:230.256 JLINK_WriteReg(R13 (SP), 0x20004000)
T3794 357:230.264 - 0.012ms returns 0x00
T3794 357:230.272 JLINK_WriteReg(R14, 0x20000001)
T3794 357:230.280 - 0.011ms returns 0x00
T3794 357:230.287 JLINK_WriteReg(R15 (PC), 0x20000288)
T3794 357:230.295 - 0.011ms returns 0x00
T3794 357:230.303 JLINK_WriteReg(XPSR, 0x01000000)
T3794 357:230.311 - 0.011ms returns 0x00
T3794 357:230.320 JLINK_WriteReg(MSP, 0x20004000)
T3794 357:230.328 - 0.011ms returns 0x00
T3794 357:230.335 JLINK_WriteReg(PSP, 0x20004000)
T3794 357:230.343 - 0.011ms returns 0x00
T3794 357:230.351 JLINK_WriteReg(CFBP, 0x00000000)
T3794 357:230.358 - 0.011ms returns 0x00
T3794 357:230.367   JLINK_SetBPEx(Addr = 0x20000000, Type = 0xFFFFFFF2)
T3794 357:230.378 - 0.015ms returns 0x00000006
T3794 357:230.386 JLINK_Go()
T3794 357:230.400    -- CPU_ReadMem(4 bytes @ 0xE0001000)
T3794 357:234.175 - 3.798ms
T3794 357:234.191 JLINK_IsHalted()
T3794 357:237.745    -- CPU_ReadMem(2 bytes @ 0x20000000)
T3794 357:238.152 - 3.971ms returns TRUE
T3794 357:238.168 JLINK_ReadReg(R15 (PC))
T3794 357:238.178 - 0.013ms returns 0x20000000
T3794 357:238.191 JLINK_ClrBPEx(BPHandle = 0x00000006)
T3794 357:238.200 - 0.012ms returns 0x00
T3794 357:238.208 JLINK_ReadReg(R0)
T3794 357:238.216 - 0.011ms returns 0x00000001
T3794 357:238.225 JLINK_WriteReg(R0, 0x00002000)
T3794 357:238.234 - 0.012ms returns 0x00
T3794 357:238.242 JLINK_WriteReg(R1, 0x00001000)
T3794 357:238.249 - 0.012ms returns 0x00
T3794 357:238.258 JLINK_WriteReg(R2, 0x000000FF)
T3794 357:238.265 - 0.011ms returns 0x00
T3794 357:238.274 JLINK_WriteReg(R3, 0x00000000)
T3794 357:238.283 - 0.012ms returns 0x00
T3794 357:238.291 JLINK_WriteReg(R4, 0x00000000)
T3794 357:238.299 - 0.011ms returns 0x00
T3794 357:238.307 JLINK_WriteReg(R5, 0x00000000)
T3794 357:238.315 - 0.011ms returns 0x00
T3794 357:238.323 JLINK_WriteReg(R6, 0x00000000)
T3794 357:238.331 - 0.011ms returns 0x00
T3794 357:238.339 JLINK_WriteReg(R7, 0x00000000)
T3794 357:238.347 - 0.011ms returns 0x00
T3794 357:238.355 JLINK_WriteReg(R8, 0x00000000)
T3794 357:238.363 - 0.011ms returns 0x00
T3794 357:238.371 JLINK_WriteReg(R9, 0x200005B4)
T3794 357:238.379 - 0.011ms returns 0x00
T3794 357:238.388 JLINK_WriteReg(R10, 0x00000000)
T3794 357:238.397 - 0.012ms returns 0x00
T3794 357:238.405 JLINK_WriteReg(R11, 0x00000000)
T3794 357:238.412 - 0.010ms returns 0x00
T3794 357:238.421 JLINK_WriteReg(R12, 0x00000000)
T3794 357:238.428 - 0.011ms returns 0x00
T3794 357:238.437 JLINK_WriteReg(R13 (SP), 0x20004000)
T3794 357:238.445 - 0.012ms returns 0x00
T3794 357:238.453 JLINK_WriteReg(R14, 0x20000001)
T3794 357:238.461 - 0.011ms returns 0x00
T3794 357:238.469 JLINK_WriteReg(R15 (PC), 0x200000D4)
T3794 357:238.480 - 0.016ms returns 0x00
T3794 357:238.491 JLINK_WriteReg(XPSR, 0x01000000)
T3794 357:238.499 - 0.012ms returns 0x00
T3794 357:238.508 JLINK_WriteReg(MSP, 0x20004000)
T3794 357:238.517 - 0.012ms returns 0x00
T3794 357:238.525 JLINK_WriteReg(PSP, 0x20004000)
T3794 357:238.533 - 0.012ms returns 0x00
T3794 357:238.542 JLINK_WriteReg(CFBP, 0x00000000)
T3794 357:238.550 - 0.011ms returns 0x00
T3794 357:238.559   JLINK_SetBPEx(Addr = 0x20000000, Type = 0xFFFFFFF2)
T3794 357:238.571 - 0.016ms returns 0x00000007
T3794 357:238.579 JLINK_Go()
T3794 357:238.593    -- CPU_ReadMem(4 bytes @ 0xE0001000)
T3794 357:242.395 - 3.832ms
T3794 357:242.419 JLINK_IsHalted()
T3794 357:242.761 - 0.347ms returns FALSE
T3794 357:244.779 JLINK_IsHalted()
T3794 357:248.267    -- CPU_ReadMem(2 bytes @ 0x20000000)
T3794 357:248.564 - 3.791ms returns TRUE
T3794 357:248.576 JLINK_ReadReg(R15 (PC))
T3794 357:248.585 - 0.013ms returns 0x20000000
T3794 357:248.594 JLINK_ClrBPEx(BPHandle = 0x00000007)
T3794 357:248.601 - 0.011ms returns 0x00
T3794 357:248.610 JLINK_ReadReg(R0)
T3794 357:248.617 - 0.011ms returns 0x00000000
T3794 357:248.977 JLINK_WriteReg(R0, 0x00003000)
T3794 357:248.990 - 0.017ms returns 0x00
T3794 357:248.998 JLINK_WriteReg(R1, 0x00001000)
T3794 357:249.006 - 0.011ms returns 0x00
T3794 357:249.014 JLINK_WriteReg(R2, 0x000000FF)
T3794 357:249.024 - 0.013ms returns 0x00
T3794 357:249.032 JLINK_WriteReg(R3, 0x00000000)
T3794 357:249.039 - 0.011ms returns 0x00
T3794 357:249.047 JLINK_WriteReg(R4, 0x00000000)
T3794 357:249.055 - 0.011ms returns 0x00
T3794 357:249.063 JLINK_WriteReg(R5, 0x00000000)
T3794 357:249.070 - 0.011ms returns 0x00
T3794 357:249.078 JLINK_WriteReg(R6, 0x00000000)
T3794 357:249.085 - 0.010ms returns 0x00
T3794 357:249.093 JLINK_WriteReg(R7, 0x00000000)
T3794 357:249.101 - 0.011ms returns 0x00
T3794 357:249.109 JLINK_WriteReg(R8, 0x00000000)
T3794 357:249.117 - 0.011ms returns 0x00
T3794 357:249.125 JLINK_WriteReg(R9, 0x200005B4)
T3794 357:249.134 - 0.012ms returns 0x00
T3794 357:249.142 JLINK_WriteReg(R10, 0x00000000)
T3794 357:249.149 - 0.010ms returns 0x00
T3794 357:249.157 JLINK_WriteReg(R11, 0x00000000)
T3794 357:249.165 - 0.011ms returns 0x00
T3794 357:249.173 JLINK_WriteReg(R12, 0x00000000)
T3794 357:249.180 - 0.011ms returns 0x00
T3794 357:249.188 JLINK_WriteReg(R13 (SP), 0x20004000)
T3794 357:249.196 - 0.011ms returns 0x00
T3794 357:249.204 JLINK_WriteReg(R14, 0x20000001)
T3794 357:249.211 - 0.010ms returns 0x00
T3794 357:249.220 JLINK_WriteReg(R15 (PC), 0x20000288)
T3794 357:249.228 - 0.011ms returns 0x00
T3794 357:249.236 JLINK_WriteReg(XPSR, 0x01000000)
T3794 357:249.245 - 0.013ms returns 0x00
T3794 357:249.253 JLINK_WriteReg(MSP, 0x20004000)
T3794 357:249.261 - 0.011ms returns 0x00
T3794 357:249.269 JLINK_WriteReg(PSP, 0x20004000)
T3794 357:249.276 - 0.011ms returns 0x00
T3794 357:249.284 JLINK_WriteReg(CFBP, 0x00000000)
T3794 357:249.292 - 0.010ms returns 0x00
T3794 357:249.300   JLINK_SetBPEx(Addr = 0x20000000, Type = 0xFFFFFFF2)
T3794 357:249.312 - 0.015ms returns 0x00000008
T3794 357:249.320 JLINK_Go()
T3794 357:249.332    -- CPU_ReadMem(4 bytes @ 0xE0001000)
T3794 357:252.940 - 3.626ms
T3794 357:252.951 JLINK_IsHalted()
T3794 357:256.605    -- CPU_ReadMem(2 bytes @ 0x20000000)
T3794 357:257.000 - 4.058ms returns TRUE
T3794 357:257.019 JLINK_ReadReg(R15 (PC))
T3794 357:257.030 - 0.014ms returns 0x20000000
T3794 357:257.038 JLINK_ClrBPEx(BPHandle = 0x00000008)
T3794 357:257.046 - 0.011ms returns 0x00
T3794 357:257.055 JLINK_ReadReg(R0)
T3794 357:257.063 - 0.011ms returns 0x00000001
T3794 357:257.073 JLINK_WriteReg(R0, 0x00003000)
T3794 357:257.081 - 0.011ms returns 0x00
T3794 357:257.089 JLINK_WriteReg(R1, 0x00001000)
T3794 357:257.096 - 0.010ms returns 0x00
T3794 357:257.104 JLINK_WriteReg(R2, 0x000000FF)
T3794 357:257.114 - 0.015ms returns 0x00
T3794 357:257.124 JLINK_WriteReg(R3, 0x00000000)
T3794 357:257.132 - 0.011ms returns 0x00
T3794 357:257.140 JLINK_WriteReg(R4, 0x00000000)
T3794 357:257.148 - 0.014ms returns 0x00
T3794 357:257.219 JLINK_WriteReg(R5, 0x00000000)
T3794 357:257.235 - 0.020ms returns 0x00
T3794 357:257.244 JLINK_WriteReg(R6, 0x00000000)
T3794 357:257.252 - 0.011ms returns 0x00
T3794 357:257.260 JLINK_WriteReg(R7, 0x00000000)
T3794 357:257.267 - 0.010ms returns 0x00
T3794 357:257.275 JLINK_WriteReg(R8, 0x00000000)
T3794 357:257.283 - 0.011ms returns 0x00
T3794 357:257.291 JLINK_WriteReg(R9, 0x200005B4)
T3794 357:257.299 - 0.013ms returns 0x00
T3794 357:257.308 JLINK_WriteReg(R10, 0x00000000)
T3794 357:257.316 - 0.011ms returns 0x00
T3794 357:257.324 JLINK_WriteReg(R11, 0x00000000)
T3794 357:257.332 - 0.010ms returns 0x00
T3794 357:257.340 JLINK_WriteReg(R12, 0x00000000)
T3794 357:257.347 - 0.010ms returns 0x00
T3794 357:257.354 JLINK_WriteReg(R13 (SP), 0x20004000)
T3794 357:257.363 - 0.012ms returns 0x00
T3794 357:257.371 JLINK_WriteReg(R14, 0x20000001)
T3794 357:257.378 - 0.011ms returns 0x00
T3794 357:257.386 JLINK_WriteReg(R15 (PC), 0x200000D4)
T3794 357:257.394 - 0.010ms returns 0x00
T3794 357:257.402 JLINK_WriteReg(XPSR, 0x01000000)
T3794 357:257.410 - 0.012ms returns 0x00
T3794 357:257.418 JLINK_WriteReg(MSP, 0x20004000)
T3794 357:257.426 - 0.011ms returns 0x00
T3794 357:257.434 JLINK_WriteReg(PSP, 0x20004000)
T3794 357:257.441 - 0.011ms returns 0x00
T3794 357:257.450 JLINK_WriteReg(CFBP, 0x00000000)
T3794 357:257.457 - 0.010ms returns 0x00
T3794 357:257.465   JLINK_SetBPEx(Addr = 0x20000000, Type = 0xFFFFFFF2)
T3794 357:257.477 - 0.015ms returns 0x00000009
T3794 357:257.485 JLINK_Go()
T3794 357:257.498    -- CPU_ReadMem(4 bytes @ 0xE0001000)
T3794 357:261.295 - 3.822ms
T3794 357:261.314 JLINK_IsHalted()
T3794 357:261.697 - 0.394ms returns FALSE
T3794 357:263.214 JLINK_IsHalted()
T3794 357:266.878    -- CPU_ReadMem(2 bytes @ 0x20000000)
T3794 357:267.249 - 4.044ms returns TRUE
T3794 357:267.265 JLINK_ReadReg(R15 (PC))
T3794 357:267.276 - 0.014ms returns 0x20000000
T3794 357:267.285 JLINK_ClrBPEx(BPHandle = 0x00000009)
T3794 357:267.292 - 0.011ms returns 0x00
T3794 357:267.301 JLINK_ReadReg(R0)
T3794 357:267.309 - 0.011ms returns 0x00000000
T3794 357:267.582 JLINK_WriteReg(R0, 0x00000001)
T3794 357:267.595 - 0.017ms returns 0x00
T3794 357:267.603 JLINK_WriteReg(R1, 0x00001000)
T3794 357:267.611 - 0.013ms returns 0x00
T3794 357:267.622 JLINK_WriteReg(R2, 0x000000FF)
T3794 357:267.630 - 0.010ms returns 0x00
T3794 357:267.638 JLINK_WriteReg(R3, 0x00000000)
T3794 357:267.645 - 0.010ms returns 0x00
T3794 357:267.653 JLINK_WriteReg(R4, 0x00000000)
T3794 357:267.660 - 0.011ms returns 0x00
T3794 357:267.668 JLINK_WriteReg(R5, 0x00000000)
T3794 357:267.676 - 0.011ms returns 0x00
T3794 357:267.684 JLINK_WriteReg(R6, 0x00000000)
T3794 357:267.691 - 0.011ms returns 0x00
T3794 357:267.700 JLINK_WriteReg(R7, 0x00000000)
T3794 357:267.708 - 0.011ms returns 0x00
T3794 357:267.715 JLINK_WriteReg(R8, 0x00000000)
T3794 357:267.723 - 0.011ms returns 0x00
T3794 357:267.732 JLINK_WriteReg(R9, 0x200005B4)
T3794 357:267.740 - 0.011ms returns 0x00
T3794 357:267.748 JLINK_WriteReg(R10, 0x00000000)
T3794 357:267.755 - 0.011ms returns 0x00
T3794 357:267.763 JLINK_WriteReg(R11, 0x00000000)
T3794 357:267.771 - 0.011ms returns 0x00
T3794 357:267.778 JLINK_WriteReg(R12, 0x00000000)
T3794 357:267.786 - 0.011ms returns 0x00
T3794 357:267.794 JLINK_WriteReg(R13 (SP), 0x20004000)
T3794 357:267.802 - 0.011ms returns 0x00
T3794 357:267.809 JLINK_WriteReg(R14, 0x20000001)
T3794 357:267.817 - 0.010ms returns 0x00
T3794 357:267.825 JLINK_WriteReg(R15 (PC), 0x20000060)
T3794 357:267.832 - 0.011ms returns 0x00
T3794 357:267.841 JLINK_WriteReg(XPSR, 0x01000000)
T3794 357:267.849 - 0.011ms returns 0x00
T3794 357:267.856 JLINK_WriteReg(MSP, 0x20004000)
T3794 357:267.864 - 0.011ms returns 0x00
T3794 357:267.872 JLINK_WriteReg(PSP, 0x20004000)
T3794 357:267.879 - 0.010ms returns 0x00
T3794 357:267.887 JLINK_WriteReg(CFBP, 0x00000000)
T3794 357:267.895 - 0.010ms returns 0x00
T3794 357:267.903   JLINK_SetBPEx(Addr = 0x20000000, Type = 0xFFFFFFF2)
T3794 357:267.920 - 0.021ms returns 0x0000000A
T3794 357:267.928 JLINK_Go()
T3794 357:267.942    -- CPU_ReadMem(4 bytes @ 0xE0001000)
T3794 357:271.636 - 3.718ms
T3794 357:271.655 JLINK_IsHalted()
T3794 357:275.258    -- CPU_ReadMem(2 bytes @ 0x20000000)
T3794 357:275.628 - 3.983ms returns TRUE
T3794 357:275.646 JLINK_ReadReg(R15 (PC))
T3794 357:275.657 - 0.014ms returns 0x20000000
T3794 357:275.665 JLINK_ClrBPEx(BPHandle = 0x0000000A)
T3794 357:275.673 - 0.011ms returns 0x00
T3794 357:275.681 JLINK_ReadReg(R0)
T3794 357:275.689 - 0.011ms returns 0x00000000
T3794 357:337.087 JLINK_WriteMem(0x20000000, 0x05B8 Bytes, ...)
T3794 357:337.104    - Data: 00 BE 0A E0 0D 78 2D 06 68 40 08 24 40 00 00 D3 ...
T3794 357:337.127    -- CPU_WriteMem(1464 bytes @ 0x20000000)
T3794 357:347.729 - 10.666ms returns 0x5B8
T3794 357:347.794 JLINK_WriteReg(R0, 0x00000000)
T3794 357:347.807 - 0.017ms returns 0x00
T3794 357:347.816 JLINK_WriteReg(R1, 0x00B71B00)
T3794 357:347.824 - 0.012ms returns 0x00
T3794 357:347.832 JLINK_WriteReg(R2, 0x00000002)
T3794 357:347.842 - 0.015ms returns 0x00
T3794 357:347.852 JLINK_WriteReg(R3, 0x00000000)
T3794 357:347.859 - 0.010ms returns 0x00
T3794 357:347.867 JLINK_WriteReg(R4, 0x00000000)
T3794 357:347.875 - 0.011ms returns 0x00
T3794 357:347.883 JLINK_WriteReg(R5, 0x00000000)
T3794 357:347.891 - 0.011ms returns 0x00
T3794 357:347.898 JLINK_WriteReg(R6, 0x00000000)
T3794 357:347.906 - 0.011ms returns 0x00
T3794 357:347.914 JLINK_WriteReg(R7, 0x00000000)
T3794 357:347.921 - 0.010ms returns 0x00
T3794 357:347.929 JLINK_WriteReg(R8, 0x00000000)
T3794 357:347.937 - 0.011ms returns 0x00
T3794 357:347.945 JLINK_WriteReg(R9, 0x200005B4)
T3794 357:347.953 - 0.012ms returns 0x00
T3794 357:347.962 JLINK_WriteReg(R10, 0x00000000)
T3794 357:347.969 - 0.011ms returns 0x00
T3794 357:347.978 JLINK_WriteReg(R11, 0x00000000)
T3794 357:347.985 - 0.011ms returns 0x00
T3794 357:347.993 JLINK_WriteReg(R12, 0x00000000)
T3794 357:348.001 - 0.011ms returns 0x00
T3794 357:348.008 JLINK_WriteReg(R13 (SP), 0x20004000)
T3794 357:348.017 - 0.012ms returns 0x00
T3794 357:348.025 JLINK_WriteReg(R14, 0x20000001)
T3794 357:348.032 - 0.011ms returns 0x00
T3794 357:348.040 JLINK_WriteReg(R15 (PC), 0x20000020)
T3794 357:348.048 - 0.011ms returns 0x00
T3794 357:348.056 JLINK_WriteReg(XPSR, 0x01000000)
T3794 357:348.064 - 0.012ms returns 0x00
T3794 357:348.073 JLINK_WriteReg(MSP, 0x20004000)
T3794 357:348.080 - 0.011ms returns 0x00
T3794 357:348.088 JLINK_WriteReg(PSP, 0x20004000)
T3794 357:348.096 - 0.011ms returns 0x00
T3794 357:348.104 JLINK_WriteReg(CFBP, 0x00000000)
T3794 357:348.111 - 0.010ms returns 0x00
T3794 357:348.120   JLINK_SetBPEx(Addr = 0x20000000, Type = 0xFFFFFFF2)
T3794 357:348.135    -- CPU_ReadMem(2 bytes @ 0x20000000)
T3794 357:348.506 - 0.396ms returns 0x0000000B
T3794 357:348.523 JLINK_Go()
T3794 357:348.534    -- CPU_WriteMem(2 bytes @ 0x20000000)
T3794 357:348.918    -- CPU_ReadMem(4 bytes @ 0xE0001000)
T3794 357:352.684 - 4.170ms
T3794 357:352.700 JLINK_IsHalted()
T3794 357:356.326    -- CPU_ReadMem(2 bytes @ 0x20000000)
T3794 357:356.693 - 4.004ms returns TRUE
T3794 357:356.713 JLINK_ReadReg(R15 (PC))
T3794 357:356.725 - 0.015ms returns 0x20000000
T3794 357:356.733 JLINK_ClrBPEx(BPHandle = 0x0000000B)
T3794 357:356.741 - 0.011ms returns 0x00
T3794 357:356.750 JLINK_ReadReg(R0)
T3794 357:356.757 - 0.011ms returns 0x00000000
T3794 357:357.321 JLINK_WriteMem(0x200005C8, 0x0238 Bytes, ...)
T3794 357:357.337    - Data: 20 37 00 20 15 02 00 00 1D 02 00 00 1F 02 00 00 ...
T3794 357:357.359    -- CPU_WriteMem(568 bytes @ 0x200005C8)
T3794 357:361.863 - 4.555ms returns 0x238
T3794 357:361.885 JLINK_WriteMem(0x20000800, 0x0400 Bytes, ...)
T3794 357:361.893    - Data: 40 EA 01 03 9B 07 03 D0 09 E0 08 C9 12 1F 08 C0 ...
T3794 357:361.911    -- CPU_WriteMem(1024 bytes @ 0x20000800)
T3794 357:369.522 - 7.646ms returns 0x400
T3794 357:369.539 JLINK_WriteMem(0x20000C00, 0x0400 Bytes, ...)
T3794 357:369.547    - Data: 03 28 02 D1 01 20 03 49 08 61 70 47 40 A1 01 40 ...
T3794 357:369.569    -- CPU_WriteMem(1024 bytes @ 0x20000C00)
T3794 357:377.206 - 7.706ms returns 0x400
T3794 357:377.253 JLINK_WriteMem(0x20001000, 0x0400 Bytes, ...)
T3794 357:377.262    - Data: F0 13 00 20 14 36 00 00 B5 2F 00 00 20 00 00 20 ...
T3794 357:377.280    -- CPU_WriteMem(1024 bytes @ 0x20001000)
T3794 357:384.870 - 7.626ms returns 0x400
T3794 357:384.887 JLINK_WriteMem(0x20001400, 0x01C8 Bytes, ...)
T3794 357:384.895    - Data: 88 00 00 20 7E 25 00 20 04 15 00 40 00 10 00 40 ...
T3794 357:384.910    -- CPU_WriteMem(456 bytes @ 0x20001400)
T3794 357:388.545 - 3.670ms returns 0x1C8
T3794 357:388.631 JLINK_WriteReg(R0, 0x00000000)
T3794 357:388.649 - 0.023ms returns 0x00
T3794 357:388.658 JLINK_WriteReg(R1, 0x00001000)
T3794 357:388.666 - 0.011ms returns 0x00
T3794 357:388.674 JLINK_WriteReg(R2, 0x200005C8)
T3794 357:388.681 - 0.010ms returns 0x00
T3794 357:388.689 JLINK_WriteReg(R3, 0x00000000)
T3794 357:388.697 - 0.011ms returns 0x00
T3794 357:388.705 JLINK_WriteReg(R4, 0x00000000)
T3794 357:388.712 - 0.011ms returns 0x00
T3794 357:388.720 JLINK_WriteReg(R5, 0x00000000)
T3794 357:388.728 - 0.011ms returns 0x00
T3794 357:388.736 JLINK_WriteReg(R6, 0x00000000)
T3794 357:388.743 - 0.011ms returns 0x00
T3794 357:388.752 JLINK_WriteReg(R7, 0x00000000)
T3794 357:388.760 - 0.012ms returns 0x00
T3794 357:388.768 JLINK_WriteReg(R8, 0x00000000)
T3794 357:388.776 - 0.011ms returns 0x00
T3794 357:388.784 JLINK_WriteReg(R9, 0x200005B4)
T3794 357:388.791 - 0.011ms returns 0x00
T3794 357:388.799 JLINK_WriteReg(R10, 0x00000000)
T3794 357:388.807 - 0.011ms returns 0x00
T3794 357:388.814 JLINK_WriteReg(R11, 0x00000000)
T3794 357:388.822 - 0.011ms returns 0x00
T3794 357:388.830 JLINK_WriteReg(R12, 0x00000000)
T3794 357:388.838 - 0.011ms returns 0x00
T3794 357:388.846 JLINK_WriteReg(R13 (SP), 0x20004000)
T3794 357:388.854 - 0.011ms returns 0x00
T3794 357:388.863 JLINK_WriteReg(R14, 0x20000001)
T3794 357:388.871 - 0.011ms returns 0x00
T3794 357:388.879 JLINK_WriteReg(R15 (PC), 0x20000154)
T3794 357:388.886 - 0.011ms returns 0x00
T3794 357:388.898 JLINK_WriteReg(XPSR, 0x01000000)
T3794 357:388.906 - 0.011ms returns 0x00
T3794 357:388.914 JLINK_WriteReg(MSP, 0x20004000)
T3794 357:388.921 - 0.011ms returns 0x00
T3794 357:388.930 JLINK_WriteReg(PSP, 0x20004000)
T3794 357:388.937 - 0.010ms returns 0x00
T3794 357:388.945 JLINK_WriteReg(CFBP, 0x00000000)
T3794 357:388.953 - 0.011ms returns 0x00
T3794 357:388.962   JLINK_SetBPEx(Addr = 0x20000000, Type = 0xFFFFFFF2)
T3794 357:388.974 - 0.016ms returns 0x0000000C
T3794 357:388.984 JLINK_Go()
T3794 357:388.999    -- CPU_ReadMem(4 bytes @ 0xE0001000)
T3794 357:392.810 - 3.838ms
T3794 357:392.828 JLINK_IsHalted()
T3794 357:393.198 - 0.379ms returns FALSE
T3794 357:396.878 JLINK_IsHalted()
T3794 357:397.274 - 0.405ms returns FALSE
T3794 357:398.919 JLINK_IsHalted()
T3794 357:399.331 - 0.420ms returns FALSE
T3794 357:401.001 JLINK_IsHalted()
T3794 357:401.437 - 0.445ms returns FALSE
T3794 357:403.822 JLINK_IsHalted()
T3794 357:404.272 - 0.459ms returns FALSE
T3794 357:405.748 JLINK_IsHalted()
T3794 357:406.169 - 0.428ms returns FALSE
T3794 357:407.737 JLINK_IsHalted()
T3794 357:408.170 - 0.442ms returns FALSE
T3794 357:409.731 JLINK_IsHalted()
T3794 357:410.175 - 0.453ms returns FALSE
T3794 357:411.726 JLINK_IsHalted()
T3794 357:412.170 - 0.454ms returns FALSE
T3794 357:413.730 JLINK_IsHalted()
T3794 357:414.170 - 0.449ms returns FALSE
T3794 357:415.736 JLINK_IsHalted()
T3794 357:416.174 - 0.447ms returns FALSE
T3794 357:417.728 JLINK_IsHalted()
T3794 357:418.174 - 0.455ms returns FALSE
T3794 357:419.781 JLINK_IsHalted()
T3794 357:420.251 - 0.479ms returns FALSE
T3794 357:421.381 JLINK_IsHalted()
T3794 357:421.753 - 0.381ms returns FALSE
T3794 357:423.276 JLINK_IsHalted()
T3794 357:423.746 - 0.479ms returns FALSE
T3794 357:424.875 JLINK_IsHalted()
T3794 357:425.322 - 0.456ms returns FALSE
T3794 357:426.873 JLINK_IsHalted()
T3794 357:427.321 - 0.457ms returns FALSE
T3794 357:428.863 JLINK_IsHalted()
T3794 357:429.323 - 0.471ms returns FALSE
T3794 357:430.453 JLINK_IsHalted()
T3794 357:430.913 - 0.469ms returns FALSE
T3794 357:431.988 JLINK_IsHalted()
T3794 357:432.512 - 0.533ms returns FALSE
T3794 357:434.006 JLINK_IsHalted()
T3794 357:434.524 - 0.527ms returns FALSE
T3794 357:435.655 JLINK_IsHalted()
T3794 357:436.108 - 0.462ms returns FALSE
T3794 357:437.654 JLINK_IsHalted()
T3794 357:438.110 - 0.464ms returns FALSE
T3794 357:439.646 JLINK_IsHalted()
T3794 357:440.109 - 0.472ms returns FALSE
T3794 357:441.237 JLINK_IsHalted()
T3794 357:441.695 - 0.467ms returns FALSE
T3794 357:443.216 JLINK_IsHalted()
T3794 357:443.668 - 0.461ms returns FALSE
T3794 357:444.789 JLINK_IsHalted()
T3794 357:445.238 - 0.459ms returns FALSE
T3794 357:446.356 JLINK_IsHalted()
T3794 357:446.770 - 0.423ms returns FALSE
T3794 357:448.360 JLINK_IsHalted()
T3794 357:448.805 - 0.455ms returns FALSE
T3794 357:450.353 JLINK_IsHalted()
T3794 357:450.796 - 0.453ms returns FALSE
T3794 357:451.912 JLINK_IsHalted()
T3794 357:452.293 - 0.391ms returns FALSE
T3794 357:453.908 JLINK_IsHalted()
T3794 357:454.352 - 0.455ms returns FALSE
T3794 357:455.812 JLINK_IsHalted()
T3794 357:456.216 - 0.416ms returns FALSE
T3794 357:458.302 JLINK_IsHalted()
T3794 357:458.748 - 0.458ms returns FALSE
T3794 357:460.401 JLINK_IsHalted()
T3794 357:460.843 - 0.454ms returns FALSE
T3794 357:461.950 JLINK_IsHalted()
T3794 357:462.370 - 0.433ms returns FALSE
T3794 357:463.889 JLINK_IsHalted()
T3794 357:467.514    -- CPU_ReadMem(2 bytes @ 0x20000000)
T3794 357:467.936 - 4.062ms returns TRUE
T3794 357:467.964 JLINK_ReadReg(R15 (PC))
T3794 357:467.980 - 0.023ms returns 0x20000000
T3794 357:468.054 JLINK_ClrBPEx(BPHandle = 0x0000000C)
T3794 357:468.080 - 0.032ms returns 0x00
T3794 357:468.095 JLINK_ReadReg(R0)
T3794 357:468.113 - 0.023ms returns 0x00000000
T3794 357:468.671 JLINK_WriteMem(0x200005C8, 0x0238 Bytes, ...)
T3794 357:468.691    - Data: 43 F8 22 10 00 21 00 EB 40 02 03 EB 82 02 11 71 ...
T3794 357:468.717    -- CPU_WriteMem(568 bytes @ 0x200005C8)
T3794 357:473.178 - 4.529ms returns 0x238
T3794 357:473.213 JLINK_WriteMem(0x20000800, 0x0400 Bytes, ...)
T3794 357:473.229    - Data: 01 49 08 70 CC E7 00 00 00 00 00 20 95 00 00 20 ...
T3794 357:473.257    -- CPU_WriteMem(1024 bytes @ 0x20000800)
T3794 357:480.831 - 7.636ms returns 0x400
T3794 357:480.861 JLINK_WriteMem(0x20000C00, 0x0400 Bytes, ...)
T3794 357:480.877    - Data: 21 32 00 00 99 30 00 00 2D E9 F0 41 04 46 0D 46 ...
T3794 357:480.906    -- CPU_WriteMem(1024 bytes @ 0x20000C00)
T3794 357:488.513 - 7.675ms returns 0x400
T3794 357:488.549 JLINK_WriteMem(0x20001000, 0x0400 Bytes, ...)
T3794 357:488.563    - Data: 0C B9 0E 20 F9 E7 00 BF 24 48 00 68 00 F4 7F 40 ...
T3794 357:488.592    -- CPU_WriteMem(1024 bytes @ 0x20001000)
T3794 357:496.170 - 7.641ms returns 0x400
T3794 357:496.202 JLINK_WriteMem(0x20001400, 0x01C8 Bytes, ...)
T3794 357:496.214    - Data: 45 00 00 20 F0 B5 DD E9 05 45 00 BF 4F F0 A0 47 ...
T3794 357:496.236    -- CPU_WriteMem(456 bytes @ 0x20001400)
T3794 357:499.916 - 3.727ms returns 0x1C8
T3794 357:499.941 JLINK_WriteReg(R0, 0x00001000)
T3794 357:499.955 - 0.020ms returns 0x00
T3794 357:499.970 JLINK_WriteReg(R1, 0x00001000)
T3794 357:499.980 - 0.014ms returns 0x00
T3794 357:499.991 JLINK_WriteReg(R2, 0x200005C8)
T3794 357:500.000 - 0.014ms returns 0x00
T3794 357:500.010 JLINK_WriteReg(R3, 0x00000000)
T3794 357:500.019 - 0.013ms returns 0x00
T3794 357:500.030 JLINK_WriteReg(R4, 0x00000000)
T3794 357:500.040 - 0.014ms returns 0x00
T3794 357:500.049 JLINK_WriteReg(R5, 0x00000000)
T3794 357:500.059 - 0.014ms returns 0x00
T3794 357:500.070 JLINK_WriteReg(R6, 0x00000000)
T3794 357:500.079 - 0.013ms returns 0x00
T3794 357:500.089 JLINK_WriteReg(R7, 0x00000000)
T3794 357:500.099 - 0.015ms returns 0x00
T3794 357:500.111 JLINK_WriteReg(R8, 0x00000000)
T3794 357:500.120 - 0.014ms returns 0x00
T3794 357:500.131 JLINK_WriteReg(R9, 0x200005B4)
T3794 357:500.140 - 0.013ms returns 0x00
T3794 357:500.150 JLINK_WriteReg(R10, 0x00000000)
T3794 357:500.163 - 0.019ms returns 0x00
T3794 357:500.176 JLINK_WriteReg(R11, 0x00000000)
T3794 357:500.186 - 0.014ms returns 0x00
T3794 357:500.196 JLINK_WriteReg(R12, 0x00000000)
T3794 357:500.206 - 0.014ms returns 0x00
T3794 357:500.216 JLINK_WriteReg(R13 (SP), 0x20004000)
T3794 357:500.226 - 0.015ms returns 0x00
T3794 357:500.237 JLINK_WriteReg(R14, 0x20000001)
T3794 357:500.246 - 0.014ms returns 0x00
T3794 357:500.258 JLINK_WriteReg(R15 (PC), 0x20000154)
T3794 357:500.267 - 0.013ms returns 0x00
T3794 357:500.278 JLINK_WriteReg(XPSR, 0x01000000)
T3794 357:500.288 - 0.014ms returns 0x00
T3794 357:500.298 JLINK_WriteReg(MSP, 0x20004000)
T3794 357:500.308 - 0.014ms returns 0x00
T3794 357:500.317 JLINK_WriteReg(PSP, 0x20004000)
T3794 357:500.327 - 0.014ms returns 0x00
T3794 357:500.338 JLINK_WriteReg(CFBP, 0x00000000)
T3794 357:500.347 - 0.014ms returns 0x00
T3794 357:500.359   JLINK_SetBPEx(Addr = 0x20000000, Type = 0xFFFFFFF2)
T3794 357:500.373 - 0.019ms returns 0x0000000D
T3794 357:500.383 JLINK_Go()
T3794 357:500.400    -- CPU_ReadMem(4 bytes @ 0xE0001000)
T3794 357:504.170 - 3.797ms
T3794 357:504.189 JLINK_IsHalted()
T3794 357:504.567 - 0.388ms returns FALSE
T3794 357:506.915 JLINK_IsHalted()
T3794 357:507.293 - 0.389ms returns FALSE
T3794 357:508.901 JLINK_IsHalted()
T3794 357:509.268 - 0.377ms returns FALSE
T3794 357:510.893 JLINK_IsHalted()
T3794 357:511.247 - 0.364ms returns FALSE
T3794 357:513.991 JLINK_IsHalted()
T3794 357:514.525 - 0.542ms returns FALSE
T3794 357:515.654 JLINK_IsHalted()
T3794 357:516.109 - 0.465ms returns FALSE
T3794 357:517.649 JLINK_IsHalted()
T3794 357:518.100 - 0.460ms returns FALSE
T3794 357:519.640 JLINK_IsHalted()
T3794 357:520.099 - 0.468ms returns FALSE
T3794 357:521.228 JLINK_IsHalted()
T3794 357:521.777 - 0.558ms returns FALSE
